time	V(a)	V(n001)
0.000000000000000e+00	2.856899e-01	-1.111111e-01
6.723489246709656e-07	5.651585e-01	1.877106e-01
1.392348924670969e-06	8.542138e-01	5.077106e-01
1.550584792575122e-06	9.162279e-01	5.780377e-01
1.708820660479275e-06	9.777462e-01	6.483647e-01
1.867056528383428e-06	1.038769e+00	7.186918e-01
2.025292396287582e-06	1.099295e+00	7.890188e-01
2.183528264191735e-06	1.159326e+00	8.593459e-01
2.341764132095888e-06	1.218862e+00	9.296729e-01
2.500000000000040e-06	1.277901e+00	1.000000e+00
2.894285714285756e-06	1.079941e+00	8.247619e-01
3.288571428571472e-06	8.858901e-01	6.495238e-01
3.682857142857189e-06	6.957480e-01	4.742857e-01
4.077142857142904e-06	5.095148e-01	2.990476e-01
4.471428571428620e-06	3.271904e-01	1.238095e-01
4.865714285714337e-06	1.487749e-01	-5.142858e-02
5.260000000000051e-06	-2.573175e-02	-2.266667e-01
5.500000000000052e-06	-1.302452e-01	-3.333333e-01
5.740000000000053e-06	-2.334187e-01	-4.400000e-01
6.220000000000056e-06	-4.358144e-01	-6.533333e-01
6.331428571428625e-06	-4.820958e-01	-7.028571e-01
6.442857142857194e-06	-5.281053e-01	-7.523809e-01
6.554285714285764e-06	-5.738431e-01	-8.019047e-01
6.665714285714333e-06	-6.193091e-01	-8.514286e-01
6.777142857142903e-06	-6.645032e-01	-9.009524e-01
6.888571428571472e-06	-7.094256e-01	-9.504762e-01
7.000000000000041e-06	-7.540761e-01	-1.000000e+00
7.464571428571488e-06	-5.342212e-01	-7.935238e-01
7.929142857142934e-06	-3.194398e-01	-5.870476e-01
8.393714285714381e-06	-1.097320e-01	-3.805714e-01
8.858285714285827e-06	9.490235e-02	-1.740953e-01
9.322857142857274e-06	2.944631e-01	3.238094e-02
9.787428571428720e-06	4.889503e-01	2.388571e-01
1.025200000000017e-05	6.783640e-01	4.453333e-01
1.097200000000017e-05	9.631209e-01	7.653334e-01
1.150000000000006e-05	1.165338e+00	1.000000e+00
1.187234285714301e-05	9.804980e-01	8.345143e-01
1.224468571428595e-05	7.991131e-01	6.690286e-01
1.261702857142890e-05	6.211832e-01	5.035429e-01
1.298937142857185e-05	4.467085e-01	3.380571e-01
1.336171428571479e-05	2.756888e-01	1.725714e-01
1.373405714285774e-05	1.081243e-01	7.085715e-03
1.410640000000068e-05	-5.598518e-02	-1.584000e-01
1.434640000000068e-05	-1.601107e-01	-2.650667e-01
1.482640000000068e-05	-3.643741e-01	-4.784000e-01
1.530640000000067e-05	-5.634335e-01	-6.917334e-01
1.600000000000006e-05	-8.424549e-01	-1.000000e+00
1.629142857142862e-05	-7.024612e-01	-8.704762e-01
1.658285714285719e-05	-5.645291e-01	-7.409524e-01
1.687428571428576e-05	-4.286588e-01	-6.114286e-01
1.716571428571433e-05	-2.948500e-01	-4.819048e-01
1.745714285714290e-05	-1.631030e-01	-3.523810e-01
1.774857142857146e-05	-3.341756e-02	-2.228572e-01
1.804000000000003e-05	9.420620e-02	-9.333333e-02
1.828000000000003e-05	1.978417e-01	1.333333e-02
1.876000000000002e-05	4.011438e-01	2.266667e-01
1.924000000000002e-05	5.992665e-01	4.400000e-01
1.996000000000001e-05	8.870268e-01	7.600000e-01
2.050000000000008e-05	1.095947e+00	1.000000e+00
2.082742857142858e-05	9.343985e-01	8.544762e-01
2.115485714285709e-05	7.755172e-01	7.089524e-01
2.148228571428559e-05	6.193032e-01	5.634286e-01
2.180971428571410e-05	4.657563e-01	4.179048e-01
2.213714285714260e-05	3.148766e-01	2.723810e-01
2.246457142857111e-05	1.666642e-01	1.268572e-01
2.279199999999962e-05	2.111896e-02	-1.866667e-02
2.303199999999961e-05	-8.399510e-02	-1.253333e-01
2.327199999999961e-05	-1.877615e-01	-2.320000e-01
2.375199999999961e-05	-3.913205e-01	-4.453333e-01
2.423199999999960e-05	-5.896934e-01	-6.586667e-01
2.500000000000008e-05	-8.969336e-01	-1.000000e+00
2.530377142857108e-05	-7.501777e-01	-8.649905e-01
2.560754285714207e-05	-6.056732e-01	-7.299809e-01
2.591131428571307e-05	-4.634201e-01	-5.949714e-01
2.621508571428406e-05	-3.234184e-01	-4.599619e-01
2.651885714285506e-05	-1.856681e-01	-3.249524e-01
2.682262857142605e-05	-5.016930e-02	-1.899429e-01
2.712639999999705e-05	8.307813e-02	-5.493333e-02
2.736639999999705e-05	1.868563e-01	5.173333e-02
2.784639999999704e-05	3.904383e-01	2.650667e-01
2.832639999999704e-05	5.888337e-01	4.784000e-01
2.904639999999703e-05	8.770233e-01	7.984000e-01
2.950000000000009e-05	1.053180e+00	1.000000e+00
2.982571428571438e-05	8.932146e-01	8.552381e-01
3.015142857142866e-05	7.358756e-01	7.104762e-01
3.047714285714294e-05	5.811633e-01	5.657143e-01
3.080285714285723e-05	4.290777e-01	4.209524e-01
3.112857142857150e-05	2.796188e-01	2.761905e-01
3.145428571428579e-05	1.327865e-01	1.314286e-01
3.178000000000007e-05	-1.141901e-02	-1.333333e-02
3.202000000000007e-05	-1.161159e-01	-1.200000e-01
3.226000000000007e-05	-2.194705e-01	-2.266667e-01
3.274000000000006e-05	-4.222216e-01	-4.400000e-01
3.346000000000006e-05	-7.167044e-01	-7.600000e-01
3.400000000000009e-05	-9.305053e-01	-1.000000e+00
3.429314285714291e-05	-7.883164e-01	-8.697143e-01
3.458628571428572e-05	-6.482346e-01	-7.394286e-01
3.487942857142854e-05	-5.102598e-01	-6.091429e-01
3.517257142857136e-05	-3.743921e-01	-4.788572e-01
3.546571428571417e-05	-2.406315e-01	-3.485715e-01
3.575885714285699e-05	-1.089780e-01	-2.182857e-01
3.605199999999980e-05	2.056838e-02	-8.800000e-02
3.629199999999980e-05	1.251480e-01	1.866667e-02
3.653199999999980e-05	2.283868e-01	1.253333e-01
3.701199999999979e-05	4.309108e-01	3.386667e-01
3.773199999999979e-05	7.250636e-01	6.586667e-01
3.850000000000011e-05	1.026823e+00	1.000000e+00
3.883805714285695e-05	8.613256e-01	8.497524e-01
3.917611428571379e-05	6.986465e-01	6.995048e-01
3.951417142857063e-05	5.387854e-01	5.492572e-01
3.985222857142748e-05	3.817421e-01	3.990095e-01
4.019028571428432e-05	2.275168e-01	2.487619e-01
4.052834285714116e-05	7.610951e-02	9.851429e-02
4.086639999999800e-05	-7.247989e-02	-5.173333e-02
4.110639999999800e-05	-1.763940e-01	-1.584000e-01
4.158639999999800e-05	-3.802425e-01	-3.717333e-01
4.206639999999800e-05	-5.788977e-01	-5.850667e-01
4.276000000000011e-05	-8.570813e-01	-8.933333e-01
4.300000000000011e-05	-9.512039e-01	-1.000000e+00
4.329142857142868e-05	-8.095224e-01	-8.704762e-01
4.358285714285724e-05	-6.699275e-01	-7.409524e-01
4.387428571428582e-05	-5.324191e-01	-6.114286e-01
4.416571428571438e-05	-3.969971e-01	-4.819048e-01
4.445714285714295e-05	-2.636617e-01	-3.523810e-01
4.474857142857152e-05	-1.324128e-01	-2.228572e-01
4.504000000000008e-05	-3.250357e-03	-9.333333e-02
4.528000000000008e-05	1.016346e-01	1.333333e-02
4.552000000000008e-05	2.051749e-01	1.200000e-01
4.600000000000007e-05	4.082902e-01	3.333333e-01
4.672000000000007e-05	7.033019e-01	6.533333e-01
4.750000000000014e-05	1.010568e+00	1.000000e+00
4.786171428571435e-05	8.339214e-01	8.392381e-01
4.822342857142856e-05	6.604869e-01	6.784762e-01
4.858514285714278e-05	4.902640e-01	5.177143e-01
4.894685714285699e-05	3.232528e-01	3.569524e-01
4.930857142857121e-05	1.594531e-01	1.961905e-01
4.967028571428542e-05	-1.134889e-03	3.542857e-02
5.003199999999963e-05	-1.585113e-01	-1.253333e-01
5.027199999999963e-05	-2.613224e-01	-2.320000e-01
5.075199999999963e-05	-4.630072e-01	-4.453333e-01
5.147199999999962e-05	-7.559413e-01	-7.653334e-01
5.200000000000014e-05	-9.639654e-01	-1.000000e+00
5.230377142857110e-05	-8.161254e-01	-8.649905e-01
5.260754285714206e-05	-6.705535e-01	-7.299809e-01
5.291131428571302e-05	-5.272496e-01	-5.949714e-01
5.321508571428398e-05	-3.862138e-01	-4.599619e-01
5.351885714285494e-05	-2.474461e-01	-3.249524e-01
5.382262857142590e-05	-1.109463e-01	-1.899429e-01
5.412639999999686e-05	2.328535e-02	-5.493333e-02
5.436639999999686e-05	1.278301e-01	5.173333e-02
5.460639999999686e-05	2.310346e-01	1.584000e-01
5.508639999999685e-05	4.334911e-01	3.717333e-01
5.580639999999684e-05	7.275459e-01	6.917334e-01
5.650000000000015e-05	1.000553e+00	1.000000e+00
5.686000000000015e-05	8.249307e-01	8.400000e-01
5.722000000000015e-05	6.524856e-01	6.800000e-01
5.758000000000014e-05	4.832180e-01	5.200000e-01
5.794000000000014e-05	3.171280e-01	3.600000e-01
5.830000000000013e-05	1.542156e-01	2.000000e-01
5.866000000000013e-05	-5.519260e-03	4.000000e-02
5.902000000000012e-05	-1.620766e-01	-1.200000e-01
5.950000000000012e-05	-3.662899e-01	-3.333333e-01
5.998000000000011e-05	-5.655908e-01	-5.466667e-01
5.999999999999999e-05	-5.737981e-01	-5.555556e-01
